                   * c:\users\my\desktop\prakash\prakash.cir
                   Transient Analysis  Mon Mar 07 21:31:19  2022
--------------------------------------------------------------------------------
Index   time            net-_q1-pad2_   net-_q2-pad2_   net-_r2-pad2_   
--------------------------------------------------------------------------------
0	0.000000e+000	2.002354e-015	2.002354e-015	2.000000e+000	
1	1.000000e-008	1.999995e-002	1.999995e-002	2.000000e+000	
2	2.000000e-008	3.999995e-002	3.999995e-002	2.000000e+000	
3	4.000000e-008	7.999994e-002	7.999994e-002	2.000000e+000	
4	8.000000e-008	1.599999e-001	1.599999e-001	2.000000e+000	
5	1.600000e-007	3.199999e-001	3.199999e-001	2.000000e+000	
6	3.200000e-007	6.399999e-001	6.399999e-001	2.000000e+000	
7	4.714643e-007	9.429179e-001	9.429179e-001	2.000000e+000	
8	6.156330e-007	1.231230e+000	1.231230e+000	2.000000e+000	
9	7.750643e-007	1.550063e+000	1.550063e+000	2.000000e+000	
10	9.277305e-007	1.855365e+000	1.855365e+000	2.000000e+000	
11	1.000000e-006	1.999890e+000	1.999890e+000	2.000000e+000	
12	1.019238e-006	1.999890e+000	1.999890e+000	2.000000e+000	
13	1.057715e-006	1.999890e+000	1.999890e+000	2.000000e+000	
14	1.134668e-006	1.999890e+000	1.999890e+000	2.000000e+000	
15	1.288574e-006	1.999890e+000	1.999890e+000	2.000000e+000	
16	1.596386e-006	1.999890e+000	1.999890e+000	2.000000e+000	
17	1.980466e-006	1.999890e+000	1.999890e+000	2.000000e+000	
18	2.477201e-006	1.999890e+000	1.999890e+000	2.000000e+000	
19	3.214797e-006	1.999890e+000	1.999890e+000	2.000000e+000	
20	4.619556e-006	1.999890e+000	1.999890e+000	2.000000e+000	
21	7.429075e-006	1.999890e+000	1.999890e+000	2.000000e+000	
22	1.304811e-005	1.999890e+000	1.999890e+000	2.000000e+000	
23	2.428619e-005	1.999890e+000	1.999890e+000	2.000000e+000	
24	4.676234e-005	1.999890e+000	1.999890e+000	2.000000e+000	
25	9.171465e-005	1.999890e+000	1.999890e+000	2.000000e+000	
26	1.816193e-004	1.999890e+000	1.999890e+000	2.000000e+000	
27	3.614285e-004	1.999890e+000	1.999890e+000	2.000000e+000	
28	7.210469e-004	1.999890e+000	1.999890e+000	2.000000e+000	
29	1.001000e-003	1.999890e+000	1.999890e+000	2.000000e+000	
30	1.001100e-003	1.799910e+000	1.999890e+000	2.000000e+000	
31	1.001300e-003	1.399950e+000	1.999890e+000	2.000000e+000	
32	1.001579e-003	8.425683e-001	1.999890e+000	2.000000e+000	
33	1.001736e-003	5.280587e-001	1.999890e+000	2.000000e+000	
34	1.001868e-003	2.634004e-001	1.999890e+000	2.000000e+000	
35	1.001996e-003	7.510488e-003	1.999890e+000	2.000000e+000	
36	1.002000e-003	-9.66928e-006	1.999890e+000	2.000000e+000	
37	1.002001e-003	-2.21284e-006	1.999890e+000	2.000000e+000	
38	1.002002e-003	4.112334e-007	1.999890e+000	2.000000e+000	
39	1.002002e-003	-7.45139e-008	1.999890e+000	2.000000e+000	
40	1.002003e-003	-3.11921e-008	1.999890e+000	2.000000e+000	
41	1.002003e-003	-1.77426e-008	1.999890e+000	2.000000e+000	
42	1.002003e-003	-4.89709e-009	1.999890e+000	2.000000e+000	
43	1.002003e-003	-3.87393e-009	1.999890e+000	2.000000e+000	
44	1.002004e-003	1.772454e-009	1.999890e+000	2.000000e+000	
45	1.002004e-003	-1.70777e-009	1.999890e+000	2.000000e+000	
46	1.002006e-003	1.685332e-009	1.999890e+000	2.000000e+000	
47	1.002008e-003	-1.67245e-009	1.999890e+000	2.000000e+000	
48	1.002012e-003	1.666413e-009	1.999890e+000	2.000000e+000	
49	1.002020e-003	-1.66323e-009	1.999890e+000	2.000000e+000	
50	1.002037e-003	1.661733e-009	1.999890e+000	2.000000e+000	
51	1.002070e-003	-1.66094e-009	1.999890e+000	2.000000e+000	
52	1.002137e-003	1.660565e-009	1.999890e+000	2.000000e+000	
53	1.002270e-003	-1.66036e-009	1.999890e+000	2.000000e+000	
54	1.002537e-003	1.660274e-009	1.999890e+000	2.000000e+000	

Index   time            net-_q1-pad2_   net-_q2-pad2_   net-_r2-pad2_   
--------------------------------------------------------------------------------
55	1.003071e-003	-1.66022e-009	1.999890e+000	2.000000e+000	
56	1.004139e-003	1.660201e-009	1.999890e+000	2.000000e+000	
57	1.006275e-003	-1.66018e-009	1.999890e+000	2.000000e+000	
58	1.010546e-003	1.660183e-009	1.999890e+000	2.000000e+000	
59	1.019089e-003	-1.66018e-009	1.999890e+000	2.000000e+000	
60	1.036174e-003	1.660178e-009	1.999890e+000	2.000000e+000	
61	1.070345e-003	-1.66017e-009	1.999890e+000	2.000000e+000	
62	1.138687e-003	1.660177e-009	1.999890e+000	2.000000e+000	
63	1.275370e-003	-1.66017e-009	1.999890e+000	2.000000e+000	
64	1.548736e-003	1.660177e-009	1.999890e+000	2.000000e+000	
65	1.948736e-003	-1.66017e-009	1.999890e+000	2.000000e+000	
66	2.000000e-003	1.660176e-009	1.999890e+000	2.000000e+000	
67	2.000100e-003	1.999999e-001	1.999890e+000	2.000000e+000	
68	2.000300e-003	5.999999e-001	1.999890e+000	2.000000e+000	
69	2.000489e-003	9.778889e-001	1.999890e+000	2.000000e+000	
70	2.000669e-003	1.337379e+000	1.999890e+000	2.000000e+000	
71	2.000816e-003	1.631423e+000	1.999890e+000	2.000000e+000	
72	2.000984e-003	1.968332e+000	1.999890e+000	2.000000e+000	
73	2.001000e-003	1.999890e+000	1.999890e+000	2.000000e+000	
74	2.001032e-003	1.999890e+000	1.936775e+000	2.000000e+000	
75	2.001095e-003	1.999890e+000	1.810546e+000	2.000000e+000	
76	2.001221e-003	1.999890e+000	1.558088e+000	2.000000e+000	
77	2.001473e-003	1.999890e+000	1.053172e+000	2.000000e+000	
78	2.001663e-003	1.999890e+000	6.736718e-001	2.000000e+000	
79	2.001762e-003	1.999890e+000	4.763881e-001	2.000000e+000	
80	2.001827e-003	1.999890e+000	3.463387e-001	2.000000e+000	
81	2.001879e-003	1.999890e+000	2.427373e-001	2.000000e+000	
82	2.001930e-003	1.999890e+000	1.407920e-001	2.000000e+000	
83	2.002000e-003	1.999890e+000	-1.68640e-006	2.000000e+000	
84	2.002010e-003	1.999890e+000	-5.04858e-008	2.000000e+000	
85	2.002020e-003	1.999890e+000	4.537397e-008	2.000000e+000	
86	2.002028e-003	1.999890e+000	-3.92290e-008	2.000000e+000	
87	2.002035e-003	1.999890e+000	3.382531e-008	2.000000e+000	
88	2.002044e-003	1.999890e+000	-3.02242e-008	2.000000e+000	
89	2.002053e-003	1.999890e+000	2.681582e-008	2.000000e+000	
90	2.002064e-003	1.999890e+000	-2.41702e-008	2.000000e+000	
91	2.002076e-003	1.999890e+000	2.203835e-008	2.000000e+000	
92	2.002088e-003	1.999890e+000	-2.02565e-008	2.000000e+000	
93	2.002103e-003	1.999890e+000	1.885390e-008	2.000000e+000	
94	2.002121e-003	1.999890e+000	-1.77282e-008	2.000000e+000	
95	2.002142e-003	1.999890e+000	1.684918e-008	2.000000e+000	
96	2.002169e-003	1.999890e+000	-1.61810e-008	2.000000e+000	
97	2.002204e-003	1.999890e+000	1.568920e-008	2.000000e+000	
98	2.002252e-003	1.999890e+000	-1.53441e-008	2.000000e+000	
99	2.002325e-003	1.999890e+000	1.511743e-008	2.000000e+000	
100	2.002443e-003	1.999890e+000	-1.49796e-008	2.000000e+000	
101	2.002657e-003	1.999890e+000	1.490456e-008	2.000000e+000	
102	2.003086e-003	1.999890e+000	-1.48671e-008	2.000000e+000	
103	2.003944e-003	1.999890e+000	1.484840e-008	2.000000e+000	
104	2.005661e-003	1.999890e+000	-1.48390e-008	2.000000e+000	
105	2.009093e-003	1.999890e+000	1.483440e-008	2.000000e+000	
106	2.015959e-003	1.999890e+000	-1.48321e-008	2.000000e+000	
107	2.029689e-003	1.999890e+000	1.483090e-008	2.000000e+000	
108	2.057150e-003	1.999890e+000	-1.48303e-008	2.000000e+000	
109	2.112072e-003	1.999890e+000	1.483002e-008	2.000000e+000	
110	2.221917e-003	1.999890e+000	-1.48299e-008	2.000000e+000	
111	2.441606e-003	1.999890e+000	1.482980e-008	2.000000e+000	
112	2.841606e-003	1.999890e+000	-1.48298e-008	2.000000e+000	

Index   time            net-_q1-pad2_   net-_q2-pad2_   net-_r2-pad2_   
--------------------------------------------------------------------------------
113	3.001000e-003	1.999890e+000	1.482966e-008	2.000000e+000	
114	3.001100e-003	1.799910e+000	3.997436e-011	2.000000e+000	
115	3.001300e-003	1.399950e+000	-3.94232e-011	2.000000e+000	
116	3.001435e-003	1.130343e+000	3.998927e-011	2.000000e+000	
117	3.001594e-003	8.129936e-001	-3.57480e-011	2.000000e+000	
118	3.001697e-003	6.066107e-001	1.684441e-010	2.000000e+000	
119	3.001781e-003	4.386780e-001	-1.32265e-010	2.000000e+000	
120	3.001862e-003	2.756264e-001	1.382485e-010	2.000000e+000	
121	3.001959e-003	8.237695e-002	-1.43235e-010	2.000000e+000	
122	3.002000e-003	1.632397e-005	1.547420e-010	2.000000e+000	
123	3.002019e-003	2.230184e-007	-5.97646e-012	2.000000e+000	
124	3.002030e-003	-2.01200e-007	5.433530e-012	2.000000e+000	
125	3.002040e-003	1.807200e-007	-4.90762e-012	2.000000e+000	
126	3.002050e-003	-1.63001e-007	4.459205e-012	2.000000e+000	
127	3.002066e-003	1.524440e-007	-4.17776e-012	2.000000e+000	
128	3.002085e-003	-1.43987e-007	3.962311e-012	2.000000e+000	
129	3.002112e-003	1.385575e-007	-3.81396e-012	2.000000e+000	
130	3.002156e-003	-1.35172e-007	3.729356e-012	2.000000e+000	
131	3.002229e-003	1.332308e-007	-3.67331e-012	2.000000e+000	
132	3.002374e-003	-1.32234e-007	3.651215e-012	2.000000e+000	
133	3.002663e-003	1.317524e-007	-3.63422e-012	2.000000e+000	
134	3.003240e-003	-1.31505e-007	3.631749e-012	2.000000e+000	
135	3.004396e-003	1.313849e-007	-3.62451e-012	2.000000e+000	
136	3.006706e-003	-1.31323e-007	3.626898e-012	2.000000e+000	
137	3.011328e-003	1.312932e-007	-3.62208e-012	2.000000e+000	
138	3.020571e-003	-1.31278e-007	3.625686e-012	2.000000e+000	
139	3.039057e-003	1.312703e-007	-3.62148e-012	2.000000e+000	
140	3.076029e-003	-1.31266e-007	3.625383e-012	2.000000e+000	
141	3.149972e-003	1.312646e-007	-3.62133e-012	2.000000e+000	
142	3.297860e-003	-1.31264e-007	3.625307e-012	2.000000e+000	
143	3.593635e-003	1.312631e-007	-3.62129e-012	2.000000e+000	
144	3.993635e-003	-1.31263e-007	3.625285e-012	2.000000e+000	
145	4.000000e-003	1.312407e-007	-3.62069e-012	2.000000e+000	
146	4.000100e-003	1.999999e-001	1.999999e-001	2.000000e+000	
147	4.000300e-003	5.999999e-001	5.999999e-001	2.000000e+000	
148	4.000489e-003	9.778891e-001	9.778891e-001	2.000000e+000	
149	4.000669e-003	1.337379e+000	1.337379e+000	2.000000e+000	
150	4.000816e-003	1.631437e+000	1.631437e+000	2.000000e+000	
151	4.000984e-003	1.968351e+000	1.968351e+000	2.000000e+000	
152	4.001000e-003	1.999890e+000	1.999890e+000	2.000000e+000	
153	4.001032e-003	1.999890e+000	1.999890e+000	2.000000e+000	
154	4.001095e-003	1.999890e+000	1.999890e+000	2.000000e+000	
155	4.001221e-003	1.999890e+000	1.999890e+000	2.000000e+000	
156	4.001473e-003	1.999890e+000	1.999890e+000	2.000000e+000	
157	4.001844e-003	1.999890e+000	1.999890e+000	2.000000e+000	
158	4.002284e-003	1.999890e+000	1.999890e+000	2.000000e+000	
159	4.002930e-003	1.999890e+000	1.999890e+000	2.000000e+000	
160	4.004006e-003	1.999890e+000	1.999890e+000	2.000000e+000	
161	4.006159e-003	1.999890e+000	1.999890e+000	2.000000e+000	
162	4.010463e-003	1.999890e+000	1.999890e+000	2.000000e+000	
163	4.019072e-003	1.999890e+000	1.999890e+000	2.000000e+000	
164	4.036291e-003	1.999890e+000	1.999890e+000	2.000000e+000	
165	4.070728e-003	1.999890e+000	1.999890e+000	2.000000e+000	
166	4.139602e-003	1.999890e+000	1.999890e+000	2.000000e+000	
167	4.277349e-003	1.999890e+000	1.999890e+000	2.000000e+000	
168	4.552844e-003	1.999890e+000	1.999890e+000	2.000000e+000	
169	4.952844e-003	1.999890e+000	1.999890e+000	2.000000e+000	
170	5.001000e-003	1.999890e+000	1.999890e+000	2.000000e+000	

Index   time            net-_q1-pad2_   net-_q2-pad2_   net-_r2-pad2_   
--------------------------------------------------------------------------------
171	5.001100e-003	1.799910e+000	1.999890e+000	2.000000e+000	
172	5.001300e-003	1.399950e+000	1.999890e+000	2.000000e+000	
173	5.001579e-003	8.421638e-001	1.999890e+000	2.000000e+000	
174	5.001736e-003	5.276979e-001	1.999890e+000	2.000000e+000	
175	5.001868e-003	2.629952e-001	1.999890e+000	2.000000e+000	
176	5.001996e-003	7.033214e-003	1.999890e+000	2.000000e+000	
177	5.002000e-003	-9.40599e-006	1.999890e+000	2.000000e+000	
178	5.002001e-003	-2.44587e-006	1.999890e+000	2.000000e+000	
179	5.002001e-003	4.688059e-007	1.999890e+000	2.000000e+000	
180	5.002002e-003	-3.14510e-008	1.999890e+000	2.000000e+000	
181	5.002002e-003	-1.28520e-008	1.999890e+000	2.000000e+000	
182	5.002002e-003	-1.07963e-008	1.999890e+000	2.000000e+000	
183	5.002003e-003	-2.05681e-009	1.999890e+000	2.000000e+000	
184	5.002003e-003	-3.57093e-009	1.999890e+000	2.000000e+000	
185	5.002003e-003	1.587696e-009	1.999890e+000	2.000000e+000	
186	5.002004e-003	-1.90142e-009	1.999890e+000	2.000000e+000	
187	5.002004e-003	1.844613e-009	1.999890e+000	2.000000e+000	
188	5.002006e-003	-1.81896e-009	1.999890e+000	2.000000e+000	
189	5.002008e-003	1.807684e-009	1.999890e+000	2.000000e+000	
190	5.002014e-003	-1.80187e-009	1.999890e+000	2.000000e+000	
191	5.002024e-003	1.799166e-009	1.999890e+000	2.000000e+000	
192	5.002045e-003	-1.79773e-009	1.999890e+000	2.000000e+000	
193	5.002087e-003	1.797064e-009	1.999890e+000	2.000000e+000	
194	5.002170e-003	-1.79670e-009	1.999890e+000	2.000000e+000	
195	5.002337e-003	1.796540e-009	1.999890e+000	2.000000e+000	
196	5.002671e-003	-1.79645e-009	1.999890e+000	2.000000e+000	
197	5.003338e-003	1.796409e-009	1.999890e+000	2.000000e+000	
198	5.004673e-003	-1.79638e-009	1.999890e+000	2.000000e+000	
199	5.007343e-003	1.796376e-009	1.999890e+000	2.000000e+000	
200	5.012683e-003	-1.79637e-009	1.999890e+000	2.000000e+000	
201	5.023362e-003	1.796368e-009	1.999890e+000	2.000000e+000	
202	5.044722e-003	-1.79636e-009	1.999890e+000	2.000000e+000	
203	5.087440e-003	1.796366e-009	1.999890e+000	2.000000e+000	
204	5.172878e-003	-1.79636e-009	1.999890e+000	2.000000e+000	
205	5.343752e-003	1.796365e-009	1.999890e+000	2.000000e+000	
206	5.685501e-003	-1.79636e-009	1.999890e+000	2.000000e+000	
207	6.000000e-003	1.796365e-009	1.999890e+000	2.000000e+000	
208	6.000100e-003	1.999999e-001	1.999890e+000	2.000000e+000	
209	6.000300e-003	5.999999e-001	1.999890e+000	2.000000e+000	
210	6.000489e-003	9.778889e-001	1.999890e+000	2.000000e+000	
211	6.000669e-003	1.337379e+000	1.999890e+000	2.000000e+000	
212	6.000816e-003	1.631423e+000	1.999890e+000	2.000000e+000	
213	6.000984e-003	1.968332e+000	1.999890e+000	2.000000e+000	
214	6.001000e-003	1.999890e+000	1.999890e+000	2.000000e+000	
215	6.001032e-003	1.999890e+000	1.936775e+000	2.000000e+000	
216	6.001095e-003	1.999890e+000	1.810546e+000	2.000000e+000	
217	6.001221e-003	1.999890e+000	1.558089e+000	2.000000e+000	
218	6.001473e-003	1.999890e+000	1.053173e+000	2.000000e+000	
219	6.001663e-003	1.999890e+000	6.736735e-001	2.000000e+000	
220	6.001762e-003	1.999890e+000	4.763883e-001	2.000000e+000	
221	6.001827e-003	1.999890e+000	3.463370e-001	2.000000e+000	
222	6.001879e-003	1.999890e+000	2.427332e-001	2.000000e+000	
223	6.001930e-003	1.999890e+000	1.407855e-001	2.000000e+000	
224	6.002000e-003	1.999890e+000	-1.68631e-006	2.000000e+000	
225	6.002010e-003	1.999890e+000	-5.04826e-008	2.000000e+000	
226	6.002020e-003	1.999890e+000	4.537086e-008	2.000000e+000	
227	6.002028e-003	1.999890e+000	-3.92262e-008	2.000000e+000	
228	6.002035e-003	1.999890e+000	3.382294e-008	2.000000e+000	

Index   time            net-_q1-pad2_   net-_q2-pad2_   net-_r2-pad2_   
--------------------------------------------------------------------------------
229	6.002044e-003	1.999890e+000	-3.02220e-008	2.000000e+000	
230	6.002053e-003	1.999890e+000	2.681376e-008	2.000000e+000	
231	6.002064e-003	1.999890e+000	-2.41682e-008	2.000000e+000	
232	6.002076e-003	1.999890e+000	2.203641e-008	2.000000e+000	
233	6.002088e-003	1.999890e+000	-2.02546e-008	2.000000e+000	
234	6.002103e-003	1.999890e+000	1.885193e-008	2.000000e+000	
235	6.002121e-003	1.999890e+000	-1.77261e-008	2.000000e+000	
236	6.002142e-003	1.999890e+000	1.684705e-008	2.000000e+000	
237	6.002169e-003	1.999890e+000	-1.61787e-008	2.000000e+000	
238	6.002204e-003	1.999890e+000	1.568683e-008	2.000000e+000	
239	6.002252e-003	1.999890e+000	-1.53416e-008	2.000000e+000	
240	6.002325e-003	1.999890e+000	1.511483e-008	2.000000e+000	
241	6.002442e-003	1.999890e+000	-1.49769e-008	2.000000e+000	
242	6.002657e-003	1.999890e+000	1.490179e-008	2.000000e+000	
243	6.003085e-003	1.999890e+000	-1.48643e-008	2.000000e+000	
244	6.003943e-003	1.999890e+000	1.484559e-008	2.000000e+000	
245	6.005657e-003	1.999890e+000	-1.48362e-008	2.000000e+000	
246	6.009086e-003	1.999890e+000	1.483157e-008	2.000000e+000	
247	6.015943e-003	1.999890e+000	-1.48292e-008	2.000000e+000	
248	6.029659e-003	1.999890e+000	1.482806e-008	2.000000e+000	
249	6.057090e-003	1.999890e+000	-1.48275e-008	2.000000e+000	
250	6.111951e-003	1.999890e+000	1.482719e-008	2.000000e+000	
251	6.221675e-003	1.999890e+000	-1.48270e-008	2.000000e+000	
252	6.441121e-003	1.999890e+000	1.482697e-008	2.000000e+000	
253	6.841121e-003	1.999890e+000	-1.48269e-008	2.000000e+000	
254	7.001000e-003	1.999890e+000	1.482683e-008	2.000000e+000	
255	7.001100e-003	1.799910e+000	3.996678e-011	2.000000e+000	
256	7.001300e-003	1.399950e+000	-3.94157e-011	2.000000e+000	
257	7.001435e-003	1.130342e+000	3.998180e-011	2.000000e+000	
258	7.001594e-003	8.129628e-001	-3.57392e-011	2.000000e+000	
259	7.001697e-003	6.065827e-001	1.684648e-010	2.000000e+000	
260	7.001781e-003	4.386539e-001	-1.32323e-010	2.000000e+000	
261	7.001862e-003	2.756074e-001	1.383079e-010	2.000000e+000	
262	7.001959e-003	8.238696e-002	-1.43296e-010	2.000000e+000	
263	7.002000e-003	1.632840e-005	1.548045e-010	2.000000e+000	
264	7.002019e-003	2.231146e-007	-5.97873e-012	2.000000e+000	
265	7.002030e-003	-2.01287e-007	5.435608e-012	2.000000e+000	
266	7.002040e-003	1.807988e-007	-4.90951e-012	2.000000e+000	
267	7.002050e-003	-1.63070e-007	4.460885e-012	2.000000e+000	
268	7.002066e-003	1.525090e-007	-4.17933e-012	2.000000e+000	
269	7.002085e-003	-1.44048e-007	3.963791e-012	2.000000e+000	
270	7.002112e-003	1.386159e-007	-3.81537e-012	2.000000e+000	
271	7.002156e-003	-1.35228e-007	3.730736e-012	2.000000e+000	
272	7.002229e-003	1.332865e-007	-3.67467e-012	2.000000e+000	
273	7.002374e-003	-1.32289e-007	3.652559e-012	2.000000e+000	
274	7.002663e-003	1.318074e-007	-3.63556e-012	2.000000e+000	
275	7.003240e-003	-1.31560e-007	3.633084e-012	2.000000e+000	
276	7.004395e-003	1.314397e-007	-3.62584e-012	2.000000e+000	
277	7.006706e-003	-1.31378e-007	3.628230e-012	2.000000e+000	
278	7.011327e-003	1.313480e-007	-3.62342e-012	2.000000e+000	
279	7.020569e-003	-1.31333e-007	3.627018e-012	2.000000e+000	
280	7.039053e-003	1.313250e-007	-3.62281e-012	2.000000e+000	
281	7.076021e-003	-1.31321e-007	3.626715e-012	2.000000e+000	
282	7.149958e-003	1.313193e-007	-3.62266e-012	2.000000e+000	
283	7.297831e-003	-1.31318e-007	3.626639e-012	2.000000e+000	
284	7.593577e-003	1.313179e-007	-3.62262e-012	2.000000e+000	
285	7.993577e-003	-1.31318e-007	3.626617e-012	2.000000e+000	
286	8.000000e-003	1.312957e-007	-3.62203e-012	2.000000e+000	

Index   time            net-_q1-pad2_   net-_q2-pad2_   net-_r2-pad2_   
--------------------------------------------------------------------------------
287	8.000100e-003	1.999999e-001	1.999999e-001	2.000000e+000	
288	8.000300e-003	5.999999e-001	5.999999e-001	2.000000e+000	
289	8.000489e-003	9.778891e-001	9.778891e-001	2.000000e+000	
290	8.000669e-003	1.337379e+000	1.337379e+000	2.000000e+000	
291	8.000816e-003	1.631437e+000	1.631437e+000	2.000000e+000	
292	8.000984e-003	1.968351e+000	1.968351e+000	2.000000e+000	
293	8.001000e-003	1.999890e+000	1.999890e+000	2.000000e+000	
294	8.001032e-003	1.999890e+000	1.999890e+000	2.000000e+000	
295	8.001095e-003	1.999890e+000	1.999890e+000	2.000000e+000	
296	8.001221e-003	1.999890e+000	1.999890e+000	2.000000e+000	
297	8.001473e-003	1.999890e+000	1.999890e+000	2.000000e+000	
298	8.001844e-003	1.999890e+000	1.999890e+000	2.000000e+000	
299	8.002284e-003	1.999890e+000	1.999890e+000	2.000000e+000	
300	8.002930e-003	1.999890e+000	1.999890e+000	2.000000e+000	
301	8.004006e-003	1.999890e+000	1.999890e+000	2.000000e+000	
302	8.006159e-003	1.999890e+000	1.999890e+000	2.000000e+000	
303	8.010463e-003	1.999890e+000	1.999890e+000	2.000000e+000	
304	8.019072e-003	1.999890e+000	1.999890e+000	2.000000e+000	
